How to use TMP102 from Sparkfun
-------------------------------

For information see:
  donalmorrissey.blogspot.co.uk/2012/09/raspberry-pi-i2c-tutorial.html


How to check the device:
  > i2cdetect -y 1

How to print out the result from TMP102
  > i2cget -y 1 0x48 0x00 b



How to use MCP4725 DAC from Sparkfun
------------------------------------

For information see:
  donalmorrissey.blogspot.co.uk/2012/09/raspberry-pi-digital-to-analogue.html

How to check the device:
  > i2cdetect -y 1

How to set values, 3.3 V = 0xfff:
  > i2cset -y 1 0x62 0x0f 0xff b

How to set values, 1.86 V = 0x900:
  > i2cset -y 1 0x62 0x09 0x00 b



 How to use Adafruits's 16 channel 12-bit PWM/Servo driver
 ---------------------------------------------------------

How to check the device:
  > i2cdetect -y 1

How to set values, LED0_ON_H
  > i2cset -y 1 0x40 0x07 0x01 b
  > i2cset -y 1 0x40 0x06 0x99 b
  > i2cset -y 1 0x40 0x09 0x04 b
  > i2cset -y 1 0x40 0x08 0xcc b

How to get information form PWM/Servo driver, 2nd byte is pointer reg.
  > i2cget -y 1 0x40 0x07 b    // LED0_ON_H , 0x01
  > i2cget -y 1 0x40 0x06 b    // LED0_ON_L , 0x22
  > i2cget -y 1 0x40 0x09 b    // LED0_OFF_H, 0x04
  > i2cget -y 1 0x40 0x08 b    // LED0_OFF_L, 0xcc

